
T0D64 016:560 SEGGER J-Link V6.32i Log File (0001ms, 0050ms total)
T0D64 016:560 DLL Compiled: Jul 24 2018 15:19:55 (0002ms, 0051ms total)
T0D64 016:560 Logging started @ 2019-01-14 10:32 (0002ms, 0051ms total)
T0D64 016:562 JLINK_SetWarnOutHandler(...) (0000ms, 0051ms total)
T0D64 016:562 JLINK_OpenEx(...)
Firmware: J-Link ARM-OB STM32 compiled Aug 22 2012 19:52:04
Hardware: V7.00
Feature(s): RDI,FlashDL,FlashBP,JFlash,GDBFull
TELNET listener socket opened on port 19021WEBSRV 
Starting webserver (0011ms, 0062ms total)
T0D64 016:562 WEBSRV Webserver running on local port 19080 (0011ms, 0062ms total)
T0D64 016:562   returns O.K. (0011ms, 0062ms total)
T0D64 016:574 JLINK_GetEmuCaps()  returns 0x88EA5833 (0000ms, 0062ms total)
T0D64 016:574 JLINK_TIF_GetAvailable(...) (0000ms, 0062ms total)
T0D64 016:574 JLINK_SetErrorOutHandler(...) (0000ms, 0062ms total)
T0D64 016:574 JLINK_ExecCommand("ProjectFile = "C:\Users\yvenv\Desktop\Snake LandTiger\Snake LandTiger\JLinkSettings.ini"", ...). Device "ARM7" selected.  returns 0x00 (0040ms, 0102ms total)
T0D64 016:618 JLINK_ExecCommand("Device = LPC1768", ...). Device "LPC1768" selected.  returns 0x00 (0007ms, 0109ms total)
T0D64 016:625 JLINK_ExecCommand("DisableConnectionTimeout", ...).   returns 0x01 (0000ms, 0109ms total)
T0D64 016:625 JLINK_GetHardwareVersion()  returns 0x11170 (0000ms, 0109ms total)
T0D64 016:625 JLINK_GetDLLVersion()  returns 63209 (0000ms, 0109ms total)
T0D64 016:625 JLINK_GetFirmwareString(...) (0000ms, 0109ms total)
T0D64 016:634 JLINK_GetDLLVersion()  returns 63209 (0000ms, 0109ms total)
T0D64 016:634 JLINK_GetCompileDateTime() (0000ms, 0109ms total)
T0D64 016:637 JLINK_GetFirmwareString(...) (0000ms, 0109ms total)
T0D64 016:640 JLINK_GetHardwareVersion()  returns 0x11170 (0000ms, 0109ms total)
T0D64 016:646 JLINK_TIF_Select(JLINKARM_TIF_JTAG)  returns 0x00 (0002ms, 0111ms total)
T0D64 016:648 JLINK_SetSpeed(5000) (0001ms, 0112ms total)
T0D64 016:649 JLINK_GetIdData(...) >0x2F8 JTAG>TotalIRLen = 4, IRPrint = 0x01 >0x30 JTAG> >0x30 JTAG>JTAG chain detection found 1 devices: #0 Id: 0x4BA00477, IRLen: 04, CoreSight JTAG-DPScanning AP map to find all available APs >0x78 JTAG> >0x48 JTAG> >0x40 JTAG> >0x40 JTAG> >0x48 JTAG> >0x40 JTAG>AP[1]: Stopped AP scan as end of AP map has been reachedAP[0]: AHB-AP (IDR: 0x24770011)Iterating through AP map to find AHB-AP to use >0x78 JTAG> >0x48 JTAG> >0x48 JTAG> >0x78 JTAG> >0x40 JTAG> >0x30 JTAG>
 >0x40 JTAG> >0x40 JTAG>AP[0]: Core foundAP[0]: AHB-AP ROM base: 0xE00FF000 >0x40 JTAG> >0x40 JTAG> >0x30 JTAG> >0x40 JTAG> >0x40 JTAG>CPUID register: 0x412FC230. Implementer code: 0x41 (ARM)Found Cortex-M3 r2p0, Little endian. -- Max. mem block: 0x00002C18 >0x1D8 JTAG> >0x1D0 JTAG> >0x1D8 JTAG>FPUnit: 6 code (BP) slots and 2 literal slots >0x1D8 JTAG> >0x1D0 JTAG> >0x1D8 JTAG> >0x1D0 JTAG> >0x1D8 JTAG> >0x1D0 JTAG> >0x1D8 JTAG> >0x1D0 JTAG>CoreSight components:ROMTbl[0] @ E00FF000 >0x288 JTAG>
 >0x288 JTAG> >0x288 JTAG>ROMTbl[0][0]: E000E000, CID: B105E00D, PID: 002BB000 SCS >0x288 JTAG> >0x288 JTAG>ROMTbl[0][1]: E0001000, CID: B105E00D, PID: 002BB002 DWT >0x288 JTAG> >0x288 JTAG>ROMTbl[0][2]: E0002000, CID: B105E00D, PID: 002BB003 FPB >0x288 JTAG> >0x288 JTAG>ROMTbl[0][3]: E0000000, CID: B105E00D, PID: 002BB001 ITM >0x288 JTAG> >0x288 JTAG> >0x288 JTAG>ROMTbl[0][4]: E0040000, CID: B105900D, PID: 002BB923 TPIU-Lite >0x288 JTAG> >0x288 JTAG>
ROMTbl[0][5]: E0041000, CID: B105900D, PID: 002BB924 ETM-M3 ScanLen=4 NumDevices=1 aId[0]=0x4BA00477 aIrRead[0]=0 aScanLen[0]=0 aScanRead[0]=0 (0110ms, 0222ms total)
T0D64 016:759 JLINK_JTAG_GetDeviceID(DeviceIndex = 0)  returns 0x4BA00477 (0000ms, 0222ms total)
T0D64 016:759 JLINK_JTAG_GetDeviceInfo(DeviceIndex = 0)  returns 0x00 (0001ms, 0223ms total)
T0D64 016:760 JLINK_GetDLLVersion()  returns 63209 (0000ms, 0223ms total)
T0D64 016:760 JLINK_CORE_GetFound()  returns 0x30000FF (0000ms, 0223ms total)
T0D64 016:760 JLINK_GetDebugInfo(0x100 = JLINKARM_ROM_TABLE_ADDR_INDEX) -- Value=0xE00FF000  returns 0x00 (0000ms, 0223ms total)
T0D64 016:762 JLINK_GetDebugInfo(0x100 = JLINKARM_ROM_TABLE_ADDR_INDEX) -- Value=0xE00FF000  returns 0x00 (0000ms, 0223ms total)
T0D64 016:762 JLINK_GetDebugInfo(0x101 = JLINKARM_DEBUG_INFO_ETM_ADDR_INDEX) -- Value=0xE0041000  returns 0x00 (0000ms, 0223ms total)
T0D64 016:762 JLINK_ReadMemEx(0xE0041FD0, 0x0020 Bytes, ..., Flags = 0x02000004) >0x370 JTAG> - Data: 04 00 00 00 00 00 00 00 00 00 00 00 00 00 00 00 ...  returns 0x20 (0002ms, 0225ms total)
T0D64 016:764 JLINK_GetDebugInfo(0x102 = JLINKARM_DEBUG_INFO_MTB_ADDR_INDEX) -- Value=0x00000000  returns 0x00 (0000ms, 0225ms total)
T0D64 016:764 JLINK_GetDebugInfo(0x103 = JLINKARM_DEBUG_INFO_TPIU_ADDR_INDEX) -- Value=0xE0040000  returns 0x00 (0000ms, 0225ms total)
T0D64 016:764 JLINK_GetDebugInfo(0x104 = JLINKARM_DEBUG_INFO_ITM_ADDR_INDEX) -- Value=0xE0000000  returns 0x00 (0000ms, 0225ms total)
T0D64 016:764 JLINK_GetDebugInfo(0x105 = JLINKARM_DEBUG_INFO_DWT_ADDR_INDEX) -- Value=0xE0001000  returns 0x00 (0000ms, 0225ms total)
T0D64 016:764 JLINK_GetDebugInfo(0x106 = JLINKARM_DEBUG_INFO_FPB_ADDR_INDEX) -- Value=0xE0002000  returns 0x00 (0000ms, 0225ms total)
T0D64 016:764 JLINK_GetDebugInfo(0x107 = JLINKARM_DEBUG_INFO_NVIC_ADDR_INDEX) -- Value=0xE000E000  returns 0x00 (0000ms, 0225ms total)
T0D64 016:764 JLINK_GetDebugInfo(0x10C = JLINKARM_DEBUG_INFO_DBG_ADDR_INDEX) -- Value=0xE000EDF0  returns 0x00 (0000ms, 0225ms total)
T0D64 016:764 JLINK_GetDebugInfo(0x01 = Unknown) -- Value=0x00000000  returns 0x00 (0000ms, 0225ms total)
T0D64 016:764 JLINK_ReadMemU32(0xE000ED00, 0x0001 Items, ...) >0x1D8 JTAG> - Data: 30 C2 2F 41  returns 0x01 (0001ms, 0226ms total)
T0D64 016:765 JLINK_GetDebugInfo(0x10F = JLINKARM_DEBUG_INFO_HAS_CORTEX_M_SECURITY_EXT_INDEX) -- Value=0x00000000  returns 0x00 (0000ms, 0226ms total)
T0D64 016:765 JLINK_SetResetType(JLINKARM_CM3_RESET_TYPE_NORMAL)  returns ??? (0000ms, 0226ms total)
T0D64 016:766 JLINK_Reset() -- CPU is running >0x1D0 JTAG> -- CPU is running >0x1D0 JTAG>Reset: Halt core after reset via DEMCR.VC_CORERESET.Reset: Reset device via AIRCR.SYSRESETREQ. -- CPU is running >0x208 JTAG> >0x1D8 JTAG> >0x1D8 JTAG> -- CPU is running >0x1D0 JTAG> -- CPU is running >0x1D0 JTAG> >0x1D8 JTAG> >0x170 JTAG> >0x1598 JTAG> >0x1D0 JTAG> >0x1D0 JTAG> >0x1D0 JTAG> >0x1D0 JTAG> >0x1D0 JTAG> >0x1D0 JTAG> >0x1D0 JTAG> >0x1D0 JTAG> >0x1D0 JTAG> >0x1D0 JTAG> >0x1D0 JTAG> >0x1D0 JTAG>
 >0x1D0 JTAG> >0x1D0 JTAG> >0x1D0 JTAG> >0x1D0 JTAG> >0x1D0 JTAG> >0x1D0 JTAG> >0x1D0 JTAG> >0x1D0 JTAG> >0x1D0 JTAG> >0x1D8 JTAG> >0x218 JTAG> >0x218 JTAG> >0x170 JTAG> >0x1598 JTAG> >0x1D0 JTAG> >0x1D0 JTAG> >0x1D8 JTAG> >0x1D8 JTAG> >0x1D8 JTAG> >0x1D8 JTAG> >0x1D8 JTAG> >0x1D8 JTAG> >0x1D8 JTAG> >0x1D8 JTAG> >0x1D0 JTAG> >0x1D0 JTAG> >0x1D0 JTAG> >0x1D0 JTAG> >0x1D0 JTAG> >0x1D0 JTAG> >0x1D0 JTAG> >0x1D8 JTAG> >0x218 JTAG> >0x218 JTAG> >0x170 JTAG> >0x1598 JTAG> >0x1D8 JTAG> >0x1D0 JTAG> >0x1D0 JTAG>
 >0x1D0 JTAG> >0x1D0 JTAG> >0x1D0 JTAG> >0x1D0 JTAG> >0x1D0 JTAG> >0x1D0 JTAG> >0x1D8 JTAG> >0x1D8 JTAG> >0x06 JTAG> (0382ms, 0609ms total)
T0D64 017:148 JLINK_Halt()  returns 0x00 (0000ms, 0609ms total)
T0D64 017:148 JLINK_ReadMemU32(0xE000EDF0, 0x0001 Items, ...) >0x1D8 JTAG> - Data: 03 00 03 00  returns 0x01 (0002ms, 0611ms total)
T0D64 017:150 JLINK_WriteU32(0xE000EDF0, 0xA05F0003) >0x1D0 JTAG>  returns 0x00 (0002ms, 0613ms total)
T0D64 017:152 JLINK_WriteU32(0xE000EDFC, 0x01000000) >0x1D0 JTAG>  returns 0x00 (0001ms, 0614ms total)
T0D64 017:204 JLINK_GetHWStatus(...)  returns 0x00 (0000ms, 0614ms total)
T0D64 017:231 JLINK_GetNumBPUnits(Type = 0xFFFFFF00)  returns 0x06 (0000ms, 0614ms total)
T0D64 017:231 JLINK_GetNumBPUnits(Type = 0xF0)  returns 0x2000 (0000ms, 0614ms total)
T0D64 017:231 JLINK_GetNumWPUnits()  returns 0x04 (0001ms, 0615ms total)
T0D64 017:247 JLINK_GetSpeed()  returns 0xFA0 (0000ms, 0615ms total)
T0D64 017:253 JLINK_ReadMemU32(0xE000E004, 0x0001 Items, ...) >0x1D8 JTAG> - Data: 01 00 00 00  returns 0x01 (0003ms, 0618ms total)
T0D64 017:256 JLINK_ReadMemU32(0xE000E004, 0x0001 Items, ...) >0x1D8 JTAG> - Data: 01 00 00 00  returns 0x01 (0001ms, 0619ms total)
T0D64 017:257 JLINK_WriteMemEx(0xE0001000, 0x001C Bytes, ..., Flags = 0x02000004) - Data: 01 00 00 00 00 00 00 00 00 00 00 00 00 00 00 00 ... >0x2F0 JTAG>  returns 0x1C (0002ms, 0621ms total)
T0D64 017:259 JLINK_Halt()  returns 0x00 (0000ms, 0621ms total)
T0D64 017:259 JLINK_IsHalted() >0x1D8 JTAG>  returns TRUE (0001ms, 0622ms total)
T0D64 017:264 JLINK_WriteMem(0x10000000, 0x01E4 Bytes, ...) - Data: 00 BE 0A E0 0D 78 2D 06 68 40 08 24 40 00 00 D3 ... >0x17D8 JTAG>  returns 0x1E4 (0011ms, 0632ms total)
T0D64 017:275 JLINK_WriteReg(R0, 0x00000000)  returns 0x00 (0001ms, 0633ms total)
T0D64 017:276 JLINK_WriteReg(R1, 0x00B71B00)  returns 0x00 (0000ms, 0633ms total)
T0D64 017:276 JLINK_WriteReg(R2, 0x00000001)  returns 0x00 (0000ms, 0633ms total)
T0D64 017:276 JLINK_WriteReg(R3, 0x00000000)  returns 0x00 (0000ms, 0633ms total)
T0D64 017:276 JLINK_WriteReg(R4, 0x00000000)  returns 0x00 (0000ms, 0633ms total)
T0D64 017:276 JLINK_WriteReg(R5, 0x00000000)  returns 0x00 (0000ms, 0633ms total)
T0D64 017:277 JLINK_WriteReg(R6, 0x00000000)  returns 0x00 (0000ms, 0633ms total)
T0D64 017:277 JLINK_WriteReg(R7, 0x00000000)  returns 0x00 (0000ms, 0633ms total)
T0D64 017:277 JLINK_WriteReg(R8, 0x00000000)  returns 0x00 (0000ms, 0633ms total)
T0D64 017:277 JLINK_WriteReg(R9, 0x100001DC)  returns 0x00 (0000ms, 0633ms total)
T0D64 017:277 JLINK_WriteReg(R10, 0x00000000)  returns 0x00 (0000ms, 0633ms total)
T0D64 017:277 JLINK_WriteReg(R11, 0x00000000)  returns 0x00 (0000ms, 0633ms total)
T0D64 017:277 JLINK_WriteReg(R12, 0x00000000)  returns 0x00 (0000ms, 0633ms total)
T0D64 017:277 JLINK_WriteReg(R13 (SP), 0x10000FE0)  returns 0x00 (0000ms, 0633ms total)
T0D64 017:277 JLINK_WriteReg(R14, 0x10000001)  returns 0x00 (0000ms, 0633ms total)
T0D64 017:277 JLINK_WriteReg(R15 (PC), 0x10000044)  returns 0x00 (0000ms, 0633ms total)
T0D64 017:277 JLINK_WriteReg(XPSR, 0x01000000)  returns 0x00 (0000ms, 0633ms total)
T0D64 017:277 JLINK_WriteReg(MSP, 0x10000FE0)  returns 0x00 (0000ms, 0633ms total)
T0D64 017:277 JLINK_WriteReg(PSP, 0x10000FE0)  returns 0x00 (0000ms, 0633ms total)
T0D64 017:277 JLINK_WriteReg(CFBP, 0x00000000)  returns 0x00 (0000ms, 0633ms total)
T0D64 017:277 JLINK_SetBPEx(Addr = 0x10000000, Type = 0xFFFFFFF2)  returns 0x00000001 (0000ms, 0633ms total)
T0D64 017:277 JLINK_Go() >0x1D8 JTAG> >0x1D0 JTAG> >0x1D0 JTAG> >0x1D0 JTAG> >0x1D0 JTAG> >0x1D0 JTAG> >0x1D0 JTAG> >0x2C8 JTAG> >0x1E8 JTAG> >0x1E8 JTAG> >0x1E8 JTAG> >0x1E8 JTAG> >0x1E8 JTAG> >0x1E8 JTAG> >0x1E8 JTAG> >0x1E8 JTAG> >0x1E8 JTAG> >0x1E8 JTAG> >0x1E8 JTAG> >0x1E8 JTAG> >0x1E8 JTAG> >0x218 JTAG> >0x218 JTAG> (0031ms, 0664ms total)
T0D64 017:308 JLINK_IsHalted() >0x170 JTAG> >0x1598 JTAG>  returns TRUE (0011ms, 0675ms total)
T0D64 017:320 JLINK_ReadReg(R15 (PC))  returns 0x10000000 (0000ms, 0664ms total)
T0D64 017:320 JLINK_ClrBPEx(BPHandle = 0x00000001)  returns 0x00 (0000ms, 0664ms total)
T0D64 017:320 JLINK_ReadReg(R0)  returns 0x00000000 (0000ms, 0664ms total)
T0D64 017:321 JLINK_WriteReg(R0, 0x00000000)  returns 0x00 (0000ms, 0664ms total)
T0D64 017:321 JLINK_WriteReg(R1, 0x00001000)  returns 0x00 (0000ms, 0664ms total)
T0D64 017:321 JLINK_WriteReg(R2, 0x000000FF)  returns 0x00 (0000ms, 0664ms total)
T0D64 017:321 JLINK_WriteReg(R3, 0x00000000)  returns 0x00 (0000ms, 0664ms total)
T0D64 017:321 JLINK_WriteReg(R4, 0x00000000)  returns 0x00 (0000ms, 0664ms total)
T0D64 017:321 JLINK_WriteReg(R5, 0x00000000)  returns 0x00 (0000ms, 0664ms total)
T0D64 017:321 JLINK_WriteReg(R6, 0x00000000)  returns 0x00 (0000ms, 0664ms total)
T0D64 017:321 JLINK_WriteReg(R7, 0x00000000)  returns 0x00 (0000ms, 0664ms total)
T0D64 017:321 JLINK_WriteReg(R8, 0x00000000)  returns 0x00 (0000ms, 0664ms total)
T0D64 017:321 JLINK_WriteReg(R9, 0x100001DC)  returns 0x00 (0000ms, 0664ms total)
T0D64 017:321 JLINK_WriteReg(R10, 0x00000000)  returns 0x00 (0001ms, 0665ms total)
T0D64 017:322 JLINK_WriteReg(R11, 0x00000000)  returns 0x00 (0000ms, 0665ms total)
T0D64 017:322 JLINK_WriteReg(R12, 0x00000000)  returns 0x00 (0000ms, 0665ms total)
T0D64 017:322 JLINK_WriteReg(R13 (SP), 0x10000FE0)  returns 0x00 (0000ms, 0665ms total)
T0D64 017:322 JLINK_WriteReg(R14, 0x10000001)  returns 0x00 (0000ms, 0665ms total)
T0D64 017:322 JLINK_WriteReg(R15 (PC), 0x10000020)  returns 0x00 (0000ms, 0665ms total)
T0D64 017:322 JLINK_WriteReg(XPSR, 0x01000000)  returns 0x00 (0000ms, 0665ms total)
T0D64 017:322 JLINK_WriteReg(MSP, 0x10000FE0)  returns 0x00 (0000ms, 0665ms total)
T0D64 017:322 JLINK_WriteReg(PSP, 0x10000FE0)  returns 0x00 (0000ms, 0665ms total)
T0D64 017:322 JLINK_WriteReg(CFBP, 0x00000000)  returns 0x00 (0000ms, 0665ms total)
T0D64 017:322 JLINK_SetBPEx(Addr = 0x10000000, Type = 0xFFFFFFF2)  returns 0x00000002 (0000ms, 0665ms total)
T0D64 017:322 JLINK_Go() >0x1D8 JTAG> >0x2C8 JTAG> >0x1E8 JTAG> >0x1E8 JTAG> >0x1E8 JTAG> >0x1E8 JTAG> >0x1E8 JTAG> >0x218 JTAG> >0x218 JTAG> (0012ms, 0677ms total)
T0D64 017:335 JLINK_IsHalted() >0x170 JTAG> >0x1598 JTAG>  returns TRUE (0011ms, 0688ms total)
T0D64 017:346 JLINK_ReadReg(R15 (PC))  returns 0x10000000 (0000ms, 0677ms total)
T0D64 017:346 JLINK_ClrBPEx(BPHandle = 0x00000002)  returns 0x00 (0000ms, 0677ms total)
T0D64 017:346 JLINK_ReadReg(R0)  returns 0x00000001 (0000ms, 0677ms total)
T0D64 017:346 JLINK_WriteReg(R0, 0x00000000)  returns 0x00 (0000ms, 0677ms total)
T0D64 017:346 JLINK_WriteReg(R1, 0x00001000)  returns 0x00 (0000ms, 0677ms total)
T0D64 017:346 JLINK_WriteReg(R2, 0x000000FF)  returns 0x00 (0000ms, 0677ms total)
T0D64 017:346 JLINK_WriteReg(R3, 0x00000000)  returns 0x00 (0000ms, 0677ms total)
T0D64 017:347 JLINK_WriteReg(R4, 0x00000000)  returns 0x00 (0000ms, 0678ms total)
T0D64 017:347 JLINK_WriteReg(R5, 0x00000000)  returns 0x00 (0000ms, 0678ms total)
T0D64 017:347 JLINK_WriteReg(R6, 0x00000000)  returns 0x00 (0000ms, 0678ms total)
T0D64 017:347 JLINK_WriteReg(R7, 0x00000000)  returns 0x00 (0000ms, 0678ms total)
T0D64 017:347 JLINK_WriteReg(R8, 0x00000000)  returns 0x00 (0000ms, 0678ms total)
T0D64 017:347 JLINK_WriteReg(R9, 0x100001DC)  returns 0x00 (0000ms, 0678ms total)
T0D64 017:347 JLINK_WriteReg(R10, 0x00000000)  returns 0x00 (0000ms, 0678ms total)
T0D64 017:347 JLINK_WriteReg(R11, 0x00000000)  returns 0x00 (0000ms, 0678ms total)
T0D64 017:347 JLINK_WriteReg(R12, 0x00000000)  returns 0x00 (0000ms, 0678ms total)
T0D64 017:347 JLINK_WriteReg(R13 (SP), 0x10000FE0)  returns 0x00 (0000ms, 0678ms total)
T0D64 017:347 JLINK_WriteReg(R14, 0x10000001)  returns 0x00 (0000ms, 0678ms total)
T0D64 017:347 JLINK_WriteReg(R15 (PC), 0x10000110)  returns 0x00 (0000ms, 0678ms total)
T0D64 017:347 JLINK_WriteReg(XPSR, 0x01000000)  returns 0x00 (0000ms, 0678ms total)
T0D64 017:347 JLINK_WriteReg(MSP, 0x10000FE0)  returns 0x00 (0001ms, 0679ms total)
T0D64 017:348 JLINK_WriteReg(PSP, 0x10000FE0)  returns 0x00 (0000ms, 0679ms total)
T0D64 017:348 JLINK_WriteReg(CFBP, 0x00000000)  returns 0x00 (0000ms, 0679ms total)
T0D64 017:348 JLINK_SetBPEx(Addr = 0x10000000, Type = 0xFFFFFFF2)  returns 0x00000003 (0000ms, 0679ms total)
T0D64 017:348 JLINK_Go() >0x1D8 JTAG> >0x2C8 JTAG> >0x1E8 JTAG> >0x1E8 JTAG> >0x1E8 JTAG> >0x218 JTAG> >0x218 JTAG> (0012ms, 0691ms total)
T0D64 017:360 JLINK_IsHalted() >0x170 JTAG>  returns FALSE (0001ms, 0692ms total)
T0D64 017:473 JLINK_IsHalted() >0x170 JTAG> >0x1598 JTAG>  returns TRUE (0011ms, 0702ms total)
T0D64 017:484 JLINK_ReadReg(R15 (PC))  returns 0x10000000 (0000ms, 0691ms total)
T0D64 017:484 JLINK_ClrBPEx(BPHandle = 0x00000003)  returns 0x00 (0000ms, 0691ms total)
T0D64 017:484 JLINK_ReadReg(R0)  returns 0x00000000 (0000ms, 0691ms total)
T0D64 017:485 JLINK_WriteReg(R0, 0x00001000)  returns 0x00 (0000ms, 0691ms total)
T0D64 017:485 JLINK_WriteReg(R1, 0x00001000)  returns 0x00 (0000ms, 0691ms total)
T0D64 017:485 JLINK_WriteReg(R2, 0x000000FF)  returns 0x00 (0000ms, 0691ms total)
T0D64 017:485 JLINK_WriteReg(R3, 0x00000000)  returns 0x00 (0000ms, 0691ms total)
T0D64 017:485 JLINK_WriteReg(R4, 0x00000000)  returns 0x00 (0000ms, 0691ms total)
T0D64 017:485 JLINK_WriteReg(R5, 0x00000000)  returns 0x00 (0000ms, 0691ms total)
T0D64 017:485 JLINK_WriteReg(R6, 0x00000000)  returns 0x00 (0000ms, 0691ms total)
T0D64 017:485 JLINK_WriteReg(R7, 0x00000000)  returns 0x00 (0000ms, 0691ms total)
T0D64 017:485 JLINK_WriteReg(R8, 0x00000000)  returns 0x00 (0000ms, 0691ms total)
T0D64 017:485 JLINK_WriteReg(R9, 0x100001DC)  returns 0x00 (0000ms, 0691ms total)
T0D64 017:485 JLINK_WriteReg(R10, 0x00000000)  returns 0x00 (0000ms, 0691ms total)
T0D64 017:485 JLINK_WriteReg(R11, 0x00000000)  returns 0x00 (0000ms, 0691ms total)
T0D64 017:485 JLINK_WriteReg(R12, 0x00000000)  returns 0x00 (0000ms, 0691ms total)
T0D64 017:485 JLINK_WriteReg(R13 (SP), 0x10000FE0)  returns 0x00 (0000ms, 0691ms total)
T0D64 017:485 JLINK_WriteReg(R14, 0x10000001)  returns 0x00 (0000ms, 0691ms total)
T0D64 017:485 JLINK_WriteReg(R15 (PC), 0x10000020)  returns 0x00 (0000ms, 0691ms total)
T0D64 017:485 JLINK_WriteReg(XPSR, 0x01000000)  returns 0x00 (0000ms, 0691ms total)
T0D64 017:485 JLINK_WriteReg(MSP, 0x10000FE0)  returns 0x00 (0000ms, 0691ms total)
T0D64 017:485 JLINK_WriteReg(PSP, 0x10000FE0)  returns 0x00 (0000ms, 0691ms total)
T0D64 017:485 JLINK_WriteReg(CFBP, 0x00000000)  returns 0x00 (0000ms, 0691ms total)
T0D64 017:485 JLINK_SetBPEx(Addr = 0x10000000, Type = 0xFFFFFFF2)  returns 0x00000004 (0000ms, 0691ms total)
T0D64 017:485 JLINK_Go() >0x1D8 JTAG> >0x2C8 JTAG> >0x1E8 JTAG> >0x1E8 JTAG> >0x1E8 JTAG> >0x1E8 JTAG> >0x1E8 JTAG> >0x1E8 JTAG> >0x218 JTAG> >0x218 JTAG> (0014ms, 0705ms total)
T0D64 017:500 JLINK_IsHalted() >0x170 JTAG> >0x1598 JTAG>  returns TRUE (0011ms, 0716ms total)
T0D64 017:511 JLINK_ReadReg(R15 (PC))  returns 0x10000000 (0000ms, 0705ms total)
T0D64 017:511 JLINK_ClrBPEx(BPHandle = 0x00000004)  returns 0x00 (0000ms, 0705ms total)
T0D64 017:511 JLINK_ReadReg(R0)  returns 0x00000001 (0000ms, 0705ms total)
T0D64 017:511 JLINK_WriteReg(R0, 0x00001000)  returns 0x00 (0000ms, 0705ms total)
T0D64 017:511 JLINK_WriteReg(R1, 0x00001000)  returns 0x00 (0000ms, 0705ms total)
T0D64 017:511 JLINK_WriteReg(R2, 0x000000FF)  returns 0x00 (0000ms, 0705ms total)
T0D64 017:511 JLINK_WriteReg(R3, 0x00000000)  returns 0x00 (0000ms, 0705ms total)
T0D64 017:511 JLINK_WriteReg(R4, 0x00000000)  returns 0x00 (0000ms, 0705ms total)
T0D64 017:511 JLINK_WriteReg(R5, 0x00000000)  returns 0x00 (0000ms, 0705ms total)
T0D64 017:511 JLINK_WriteReg(R6, 0x00000000)  returns 0x00 (0000ms, 0705ms total)
T0D64 017:512 JLINK_WriteReg(R7, 0x00000000)  returns 0x00 (0000ms, 0705ms total)
T0D64 017:512 JLINK_WriteReg(R8, 0x00000000)  returns 0x00 (0000ms, 0705ms total)
T0D64 017:512 JLINK_WriteReg(R9, 0x100001DC)  returns 0x00 (0000ms, 0705ms total)
T0D64 017:512 JLINK_WriteReg(R10, 0x00000000)  returns 0x00 (0000ms, 0705ms total)
T0D64 017:512 JLINK_WriteReg(R11, 0x00000000)  returns 0x00 (0000ms, 0705ms total)
T0D64 017:512 JLINK_WriteReg(R12, 0x00000000)  returns 0x00 (0000ms, 0705ms total)
T0D64 017:512 JLINK_WriteReg(R13 (SP), 0x10000FE0)  returns 0x00 (0000ms, 0705ms total)
T0D64 017:512 JLINK_WriteReg(R14, 0x10000001)  returns 0x00 (0000ms, 0705ms total)
T0D64 017:512 JLINK_WriteReg(R15 (PC), 0x10000110)  returns 0x00 (0000ms, 0705ms total)
T0D64 017:512 JLINK_WriteReg(XPSR, 0x01000000)  returns 0x00 (0000ms, 0705ms total)
T0D64 017:512 JLINK_WriteReg(MSP, 0x10000FE0)  returns 0x00 (0000ms, 0705ms total)
T0D64 017:512 JLINK_WriteReg(PSP, 0x10000FE0)  returns 0x00 (0000ms, 0705ms total)
T0D64 017:512 JLINK_WriteReg(CFBP, 0x00000000)  returns 0x00 (0000ms, 0705ms total)
T0D64 017:512 JLINK_SetBPEx(Addr = 0x10000000, Type = 0xFFFFFFF2)  returns 0x00000005 (0000ms, 0705ms total)
T0D64 017:512 JLINK_Go() >0x1D8 JTAG> >0x2C8 JTAG> >0x1E8 JTAG> >0x1E8 JTAG> >0x1E8 JTAG> >0x218 JTAG> >0x218 JTAG> (0010ms, 0715ms total)
T0D64 017:522 JLINK_IsHalted() >0x170 JTAG>  returns FALSE (0001ms, 0716ms total)
T0D64 017:532 JLINK_IsHalted() >0x170 JTAG>  returns FALSE (0001ms, 0716ms total)
T0D64 017:535 JLINK_IsHalted() >0x170 JTAG>  returns FALSE (0001ms, 0716ms total)
T0D64 017:541 JLINK_IsHalted() >0x170 JTAG>  returns FALSE (0001ms, 0716ms total)
T0D64 017:544 JLINK_IsHalted() >0x170 JTAG>  returns FALSE (0001ms, 0716ms total)
T0D64 017:547 JLINK_IsHalted() >0x170 JTAG>  returns FALSE (0001ms, 0716ms total)
T0D64 017:550 JLINK_IsHalted() >0x170 JTAG>  returns FALSE (0001ms, 0716ms total)
T0D64 017:553 JLINK_IsHalted() >0x170 JTAG>  returns FALSE (0001ms, 0716ms total)
T0D64 017:556 JLINK_IsHalted() >0x170 JTAG>  returns FALSE (0001ms, 0716ms total)
T0D64 017:559 JLINK_IsHalted() >0x170 JTAG>  returns FALSE (0000ms, 0715ms total)
T0D64 017:562 JLINK_IsHalted() >0x170 JTAG>  returns FALSE (0001ms, 0716ms total)
T0D64 017:565 JLINK_IsHalted() >0x170 JTAG>  returns FALSE (0001ms, 0716ms total)
T0D64 017:568 JLINK_IsHalted() >0x170 JTAG>  returns FALSE (0001ms, 0716ms total)
T0D64 017:571 JLINK_IsHalted() >0x170 JTAG>  returns FALSE (0001ms, 0716ms total)
T0D64 017:574 JLINK_IsHalted() >0x170 JTAG>  returns FALSE (0001ms, 0716ms total)
T0D64 017:577 JLINK_IsHalted() >0x170 JTAG>  returns FALSE (0001ms, 0716ms total)
T0D64 017:580 JLINK_IsHalted() >0x170 JTAG>  returns FALSE (0001ms, 0716ms total)
T0D64 017:588 JLINK_IsHalted() >0x170 JTAG>  returns FALSE (0001ms, 0716ms total)
T0D64 017:591 JLINK_IsHalted() >0x170 JTAG>  returns FALSE (0001ms, 0716ms total)
T0D64 017:594 JLINK_IsHalted() >0x170 JTAG>  returns FALSE (0001ms, 0716ms total)
T0D64 017:597 JLINK_IsHalted() >0x170 JTAG>  returns FALSE (0001ms, 0716ms total)
T0D64 017:604 JLINK_IsHalted() >0x170 JTAG>  returns FALSE (0001ms, 0716ms total)
T0D64 017:607 JLINK_IsHalted() >0x170 JTAG>  returns FALSE (0001ms, 0716ms total)
T0D64 017:610 JLINK_IsHalted() >0x170 JTAG>  returns FALSE (0001ms, 0716ms total)
T0D64 017:613 JLINK_IsHalted() >0x170 JTAG>  returns FALSE (0001ms, 0716ms total)
T0D64 017:618 JLINK_IsHalted() >0x170 JTAG>  returns FALSE (0001ms, 0716ms total)
T0D64 017:621 JLINK_IsHalted() >0x170 JTAG>  returns FALSE (0001ms, 0716ms total)
T0D64 017:625 JLINK_IsHalted() >0x170 JTAG> >0x1598 JTAG>  returns TRUE (0011ms, 0726ms total)
T0D64 017:636 JLINK_ReadReg(R15 (PC))  returns 0x10000000 (0000ms, 0715ms total)
T0D64 017:636 JLINK_ClrBPEx(BPHandle = 0x00000005)  returns 0x00 (0000ms, 0715ms total)
T0D64 017:636 JLINK_ReadReg(R0)  returns 0x00000000 (0000ms, 0715ms total)
T0D64 017:637 JLINK_WriteReg(R0, 0x00002000)  returns 0x00 (0001ms, 0716ms total)
T0D64 017:638 JLINK_WriteReg(R1, 0x00001000)  returns 0x00 (0000ms, 0716ms total)
T0D64 017:638 JLINK_WriteReg(R2, 0x000000FF)  returns 0x00 (0000ms, 0716ms total)
T0D64 017:638 JLINK_WriteReg(R3, 0x00000000)  returns 0x00 (0000ms, 0716ms total)
T0D64 017:638 JLINK_WriteReg(R4, 0x00000000)  returns 0x00 (0000ms, 0716ms total)
T0D64 017:638 JLINK_WriteReg(R5, 0x00000000)  returns 0x00 (0000ms, 0716ms total)
T0D64 017:638 JLINK_WriteReg(R6, 0x00000000)  returns 0x00 (0000ms, 0716ms total)
T0D64 017:638 JLINK_WriteReg(R7, 0x00000000)  returns 0x00 (0000ms, 0716ms total)
T0D64 017:638 JLINK_WriteReg(R8, 0x00000000)  returns 0x00 (0000ms, 0716ms total)
T0D64 017:638 JLINK_WriteReg(R9, 0x100001DC)  returns 0x00 (0000ms, 0716ms total)
T0D64 017:638 JLINK_WriteReg(R10, 0x00000000)  returns 0x00 (0000ms, 0716ms total)
T0D64 017:638 JLINK_WriteReg(R11, 0x00000000)  returns 0x00 (0000ms, 0716ms total)
T0D64 017:638 JLINK_WriteReg(R12, 0x00000000)  returns 0x00 (0000ms, 0716ms total)
T0D64 017:638 JLINK_WriteReg(R13 (SP), 0x10000FE0)  returns 0x00 (0000ms, 0716ms total)
T0D64 017:638 JLINK_WriteReg(R14, 0x10000001)  returns 0x00 (0000ms, 0716ms total)
T0D64 017:638 JLINK_WriteReg(R15 (PC), 0x10000020)  returns 0x00 (0000ms, 0716ms total)
T0D64 017:638 JLINK_WriteReg(XPSR, 0x01000000)  returns 0x00 (0000ms, 0716ms total)
T0D64 017:638 JLINK_WriteReg(MSP, 0x10000FE0)  returns 0x00 (0000ms, 0716ms total)
T0D64 017:638 JLINK_WriteReg(PSP, 0x10000FE0)  returns 0x00 (0000ms, 0716ms total)
T0D64 017:638 JLINK_WriteReg(CFBP, 0x00000000)  returns 0x00 (0000ms, 0716ms total)
T0D64 017:638 JLINK_SetBPEx(Addr = 0x10000000, Type = 0xFFFFFFF2)  returns 0x00000006 (0000ms, 0716ms total)
T0D64 017:638 JLINK_Go() >0x1D8 JTAG> >0x2C8 JTAG> >0x1E8 JTAG> >0x1E8 JTAG> >0x1E8 JTAG> >0x1E8 JTAG> >0x1E8 JTAG> >0x1E8 JTAG> >0x218 JTAG> >0x218 JTAG> (0013ms, 0729ms total)
T0D64 017:651 JLINK_IsHalted() >0x170 JTAG> >0x1598 JTAG>  returns TRUE (0012ms, 0741ms total)
T0D64 017:663 JLINK_ReadReg(R15 (PC))  returns 0x10000000 (0000ms, 0729ms total)
T0D64 017:663 JLINK_ClrBPEx(BPHandle = 0x00000006)  returns 0x00 (0000ms, 0729ms total)
T0D64 017:663 JLINK_ReadReg(R0)  returns 0x00000001 (0000ms, 0729ms total)
T0D64 017:663 JLINK_WriteReg(R0, 0x00002000)  returns 0x00 (0000ms, 0729ms total)
T0D64 017:663 JLINK_WriteReg(R1, 0x00001000)  returns 0x00 (0000ms, 0729ms total)
T0D64 017:663 JLINK_WriteReg(R2, 0x000000FF)  returns 0x00 (0000ms, 0729ms total)
T0D64 017:663 JLINK_WriteReg(R3, 0x00000000)  returns 0x00 (0000ms, 0729ms total)
T0D64 017:663 JLINK_WriteReg(R4, 0x00000000)  returns 0x00 (0000ms, 0729ms total)
T0D64 017:663 JLINK_WriteReg(R5, 0x00000000)  returns 0x00 (0000ms, 0729ms total)
T0D64 017:663 JLINK_WriteReg(R6, 0x00000000)  returns 0x00 (0000ms, 0729ms total)
T0D64 017:663 JLINK_WriteReg(R7, 0x00000000)  returns 0x00 (0000ms, 0729ms total)
T0D64 017:663 JLINK_WriteReg(R8, 0x00000000)  returns 0x00 (0000ms, 0729ms total)
T0D64 017:663 JLINK_WriteReg(R9, 0x100001DC)  returns 0x00 (0000ms, 0729ms total)
T0D64 017:663 JLINK_WriteReg(R10, 0x00000000)  returns 0x00 (0000ms, 0729ms total)
T0D64 017:663 JLINK_WriteReg(R11, 0x00000000)  returns 0x00 (0001ms, 0730ms total)
T0D64 017:664 JLINK_WriteReg(R12, 0x00000000)  returns 0x00 (0000ms, 0730ms total)
T0D64 017:664 JLINK_WriteReg(R13 (SP), 0x10000FE0)  returns 0x00 (0000ms, 0730ms total)
T0D64 017:664 JLINK_WriteReg(R14, 0x10000001)  returns 0x00 (0000ms, 0730ms total)
T0D64 017:664 JLINK_WriteReg(R15 (PC), 0x10000110)  returns 0x00 (0000ms, 0730ms total)
T0D64 017:664 JLINK_WriteReg(XPSR, 0x01000000)  returns 0x00 (0000ms, 0730ms total)
T0D64 017:664 JLINK_WriteReg(MSP, 0x10000FE0)  returns 0x00 (0000ms, 0730ms total)
T0D64 017:664 JLINK_WriteReg(PSP, 0x10000FE0)  returns 0x00 (0000ms, 0730ms total)
T0D64 017:664 JLINK_WriteReg(CFBP, 0x00000000)  returns 0x00 (0000ms, 0730ms total)
T0D64 017:664 JLINK_SetBPEx(Addr = 0x10000000, Type = 0xFFFFFFF2)  returns 0x00000007 (0000ms, 0730ms total)
T0D64 017:664 JLINK_Go() >0x1D8 JTAG> >0x2C8 JTAG> >0x1E8 JTAG> >0x1E8 JTAG> >0x1E8 JTAG> >0x218 JTAG> >0x218 JTAG> (0010ms, 0740ms total)
T0D64 017:674 JLINK_IsHalted() >0x170 JTAG>  returns FALSE (0001ms, 0741ms total)
T0D64 017:677 JLINK_IsHalted() >0x170 JTAG>  returns FALSE (0001ms, 0741ms total)
T0D64 017:680 JLINK_IsHalted() >0x170 JTAG>  returns FALSE (0001ms, 0741ms total)
T0D64 017:683 JLINK_IsHalted() >0x170 JTAG>  returns FALSE (0001ms, 0741ms total)
T0D64 017:686 JLINK_IsHalted() >0x170 JTAG>  returns FALSE (0001ms, 0741ms total)
T0D64 017:690 JLINK_IsHalted() >0x170 JTAG>  returns FALSE (0000ms, 0740ms total)
T0D64 017:692 JLINK_IsHalted() >0x170 JTAG>  returns FALSE (0001ms, 0741ms total)
T0D64 017:695 JLINK_IsHalted() >0x170 JTAG>  returns FALSE (0001ms, 0741ms total)
T0D64 017:698 JLINK_IsHalted() >0x170 JTAG>  returns FALSE (0001ms, 0741ms total)
T0D64 017:701 JLINK_IsHalted() >0x170 JTAG>  returns FALSE (0001ms, 0741ms total)
T0D64 017:704 JLINK_IsHalted() >0x170 JTAG>  returns FALSE (0001ms, 0741ms total)
T0D64 017:707 JLINK_IsHalted() >0x170 JTAG>  returns FALSE (0001ms, 0741ms total)
T0D64 017:714 JLINK_IsHalted() >0x170 JTAG>  returns FALSE (0001ms, 0741ms total)
T0D64 017:717 JLINK_IsHalted() >0x170 JTAG>  returns FALSE (0001ms, 0741ms total)
T0D64 017:720 JLINK_IsHalted() >0x170 JTAG>  returns FALSE (0001ms, 0741ms total)
T0D64 017:723 JLINK_IsHalted() >0x170 JTAG>  returns FALSE (0001ms, 0741ms total)
T0D64 017:726 JLINK_IsHalted() >0x170 JTAG>  returns FALSE (0001ms, 0741ms total)
T0D64 017:729 JLINK_IsHalted() >0x170 JTAG>  returns FALSE (0001ms, 0741ms total)
T0D64 017:732 JLINK_IsHalted() >0x170 JTAG>  returns FALSE (0001ms, 0741ms total)
T0D64 017:735 JLINK_IsHalted() >0x170 JTAG>  returns FALSE (0001ms, 0741ms total)
T0D64 017:738 JLINK_IsHalted() >0x170 JTAG>  returns FALSE (0001ms, 0741ms total)
T0D64 017:741 JLINK_IsHalted() >0x170 JTAG>  returns FALSE (0001ms, 0741ms total)
T0D64 017:744 JLINK_IsHalted() >0x170 JTAG>  returns FALSE (0001ms, 0741ms total)
T0D64 017:747 JLINK_IsHalted() >0x170 JTAG>  returns FALSE (0001ms, 0741ms total)
T0D64 017:750 JLINK_IsHalted() >0x170 JTAG>  returns FALSE (0001ms, 0741ms total)
T0D64 017:753 JLINK_IsHalted() >0x170 JTAG>  returns FALSE (0001ms, 0741ms total)
T0D64 017:757 JLINK_IsHalted() >0x170 JTAG>  returns FALSE (0001ms, 0741ms total)
T0D64 017:760 JLINK_IsHalted() >0x170 JTAG>  returns FALSE (0001ms, 0741ms total)
T0D64 017:763 JLINK_IsHalted() >0x170 JTAG>  returns FALSE (0001ms, 0741ms total)
T0D64 017:766 JLINK_IsHalted() >0x170 JTAG>  returns FALSE (0001ms, 0741ms total)
T0D64 017:769 JLINK_IsHalted() >0x170 JTAG>  returns FALSE (0001ms, 0741ms total)
T0D64 017:772 JLINK_IsHalted() >0x170 JTAG>  returns FALSE (0001ms, 0741ms total)
T0D64 017:775 JLINK_IsHalted() >0x170 JTAG> >0x1598 JTAG>  returns TRUE (0011ms, 0751ms total)
T0D64 017:786 JLINK_ReadReg(R15 (PC))  returns 0x10000000 (0000ms, 0740ms total)
T0D64 017:787 JLINK_ClrBPEx(BPHandle = 0x00000007)  returns 0x00 (0000ms, 0740ms total)
T0D64 017:787 JLINK_ReadReg(R0)  returns 0x00000000 (0000ms, 0740ms total)
T0D64 017:789 JLINK_WriteReg(R0, 0x00003000)  returns 0x00 (0000ms, 0740ms total)
T0D64 017:789 JLINK_WriteReg(R1, 0x00001000)  returns 0x00 (0000ms, 0740ms total)
T0D64 017:789 JLINK_WriteReg(R2, 0x000000FF)  returns 0x00 (0000ms, 0740ms total)
T0D64 017:790 JLINK_WriteReg(R3, 0x00000000)  returns 0x00 (0000ms, 0741ms total)
T0D64 017:790 JLINK_WriteReg(R4, 0x00000000)  returns 0x00 (0000ms, 0741ms total)
T0D64 017:790 JLINK_WriteReg(R5, 0x00000000)  returns 0x00 (0000ms, 0741ms total)
T0D64 017:790 JLINK_WriteReg(R6, 0x00000000)  returns 0x00 (0000ms, 0741ms total)
T0D64 017:790 JLINK_WriteReg(R7, 0x00000000)  returns 0x00 (0000ms, 0741ms total)
T0D64 017:790 JLINK_WriteReg(R8, 0x00000000)  returns 0x00 (0000ms, 0741ms total)
T0D64 017:790 JLINK_WriteReg(R9, 0x100001DC)  returns 0x00 (0000ms, 0741ms total)
T0D64 017:790 JLINK_WriteReg(R10, 0x00000000)  returns 0x00 (0000ms, 0741ms total)
T0D64 017:790 JLINK_WriteReg(R11, 0x00000000)  returns 0x00 (0001ms, 0742ms total)
T0D64 017:791 JLINK_WriteReg(R12, 0x00000000)  returns 0x00 (0000ms, 0742ms total)
T0D64 017:791 JLINK_WriteReg(R13 (SP), 0x10000FE0)  returns 0x00 (0000ms, 0742ms total)
T0D64 017:791 JLINK_WriteReg(R14, 0x10000001)  returns 0x00 (0000ms, 0742ms total)
T0D64 017:791 JLINK_WriteReg(R15 (PC), 0x10000020)  returns 0x00 (0000ms, 0742ms total)
T0D64 017:791 JLINK_WriteReg(XPSR, 0x01000000)  returns 0x00 (0000ms, 0742ms total)
T0D64 017:791 JLINK_WriteReg(MSP, 0x10000FE0)  returns 0x00 (0000ms, 0742ms total)
T0D64 017:791 JLINK_WriteReg(PSP, 0x10000FE0)  returns 0x00 (0000ms, 0742ms total)
T0D64 017:791 JLINK_WriteReg(CFBP, 0x00000000)  returns 0x00 (0001ms, 0743ms total)
T0D64 017:792 JLINK_SetBPEx(Addr = 0x10000000, Type = 0xFFFFFFF2)  returns 0x00000008 (0000ms, 0743ms total)
T0D64 017:792 JLINK_Go() >0x1D8 JTAG> >0x2C8 JTAG> >0x1E8 JTAG> >0x1E8 JTAG> >0x1E8 JTAG> >0x1E8 JTAG> >0x1E8 JTAG> >0x1E8 JTAG> >0x218 JTAG> >0x218 JTAG> (0013ms, 0756ms total)
T0D64 017:805 JLINK_IsHalted() >0x170 JTAG> >0x1598 JTAG>  returns TRUE (0012ms, 0768ms total)
T0D64 017:817 JLINK_ReadReg(R15 (PC))  returns 0x10000000 (0000ms, 0756ms total)
T0D64 017:817 JLINK_ClrBPEx(BPHandle = 0x00000008)  returns 0x00 (0000ms, 0756ms total)
T0D64 017:817 JLINK_ReadReg(R0)  returns 0x00000001 (0000ms, 0756ms total)
T0D64 017:817 JLINK_WriteReg(R0, 0x00003000)  returns 0x00 (0000ms, 0756ms total)
T0D64 017:817 JLINK_WriteReg(R1, 0x00001000)  returns 0x00 (0000ms, 0756ms total)
T0D64 017:817 JLINK_WriteReg(R2, 0x000000FF)  returns 0x00 (0000ms, 0756ms total)
T0D64 017:818 JLINK_WriteReg(R3, 0x00000000)  returns 0x00 (0000ms, 0756ms total)
T0D64 017:818 JLINK_WriteReg(R4, 0x00000000)  returns 0x00 (0000ms, 0756ms total)
T0D64 017:818 JLINK_WriteReg(R5, 0x00000000)  returns 0x00 (0000ms, 0756ms total)
T0D64 017:818 JLINK_WriteReg(R6, 0x00000000)  returns 0x00 (0000ms, 0756ms total)
T0D64 017:818 JLINK_WriteReg(R7, 0x00000000)  returns 0x00 (0000ms, 0756ms total)
T0D64 017:818 JLINK_WriteReg(R8, 0x00000000)  returns 0x00 (0000ms, 0756ms total)
T0D64 017:818 JLINK_WriteReg(R9, 0x100001DC)  returns 0x00 (0000ms, 0756ms total)
T0D64 017:818 JLINK_WriteReg(R10, 0x00000000)  returns 0x00 (0000ms, 0756ms total)
T0D64 017:818 JLINK_WriteReg(R11, 0x00000000)  returns 0x00 (0000ms, 0756ms total)
T0D64 017:818 JLINK_WriteReg(R12, 0x00000000)  returns 0x00 (0000ms, 0756ms total)
T0D64 017:818 JLINK_WriteReg(R13 (SP), 0x10000FE0)  returns 0x00 (0000ms, 0756ms total)
T0D64 017:818 JLINK_WriteReg(R14, 0x10000001)  returns 0x00 (0000ms, 0756ms total)
T0D64 017:818 JLINK_WriteReg(R15 (PC), 0x10000110)  returns 0x00 (0000ms, 0756ms total)
T0D64 017:818 JLINK_WriteReg(XPSR, 0x01000000)  returns 0x00 (0000ms, 0756ms total)
T0D64 017:818 JLINK_WriteReg(MSP, 0x10000FE0)  returns 0x00 (0000ms, 0756ms total)
T0D64 017:818 JLINK_WriteReg(PSP, 0x10000FE0)  returns 0x00 (0000ms, 0756ms total)
T0D64 017:818 JLINK_WriteReg(CFBP, 0x00000000)  returns 0x00 (0000ms, 0756ms total)
T0D64 017:819 JLINK_SetBPEx(Addr = 0x10000000, Type = 0xFFFFFFF2)  returns 0x00000009 (0000ms, 0757ms total)
T0D64 017:819 JLINK_Go() >0x1D8 JTAG> >0x2C8 JTAG> >0x1E8 JTAG> >0x1E8 JTAG> >0x1E8 JTAG> >0x218 JTAG> >0x218 JTAG> (0009ms, 0766ms total)
T0D64 017:828 JLINK_IsHalted() >0x170 JTAG>  returns FALSE (0002ms, 0768ms total)
T0D64 017:834 JLINK_IsHalted() >0x170 JTAG>  returns FALSE (0001ms, 0767ms total)
T0D64 017:837 JLINK_IsHalted() >0x170 JTAG>  returns FALSE (0001ms, 0767ms total)
T0D64 017:840 JLINK_IsHalted() >0x170 JTAG>  returns FALSE (0001ms, 0767ms total)
T0D64 017:843 JLINK_IsHalted() >0x170 JTAG>  returns FALSE (0001ms, 0767ms total)
T0D64 017:846 JLINK_IsHalted() >0x170 JTAG>  returns FALSE (0001ms, 0767ms total)
T0D64 017:849 JLINK_IsHalted() >0x170 JTAG>  returns FALSE (0001ms, 0767ms total)
T0D64 017:855 JLINK_IsHalted() >0x170 JTAG>  returns FALSE (0001ms, 0767ms total)
T0D64 017:858 JLINK_IsHalted() >0x170 JTAG>  returns FALSE (0001ms, 0767ms total)
T0D64 017:860 JLINK_IsHalted() >0x170 JTAG>  returns FALSE (0001ms, 0767ms total)
T0D64 017:863 JLINK_IsHalted() >0x170 JTAG>  returns FALSE (0001ms, 0767ms total)
T0D64 017:866 JLINK_IsHalted() >0x170 JTAG>  returns FALSE (0001ms, 0767ms total)
T0D64 017:869 JLINK_IsHalted() >0x170 JTAG>  returns FALSE (0001ms, 0767ms total)
T0D64 017:872 JLINK_IsHalted() >0x170 JTAG>  returns FALSE (0001ms, 0767ms total)
T0D64 017:875 JLINK_IsHalted() >0x170 JTAG>  returns FALSE (0001ms, 0767ms total)
T0D64 017:878 JLINK_IsHalted() >0x170 JTAG>  returns FALSE (0001ms, 0767ms total)
T0D64 017:881 JLINK_IsHalted() >0x170 JTAG>  returns FALSE (0001ms, 0767ms total)
T0D64 017:884 JLINK_IsHalted() >0x170 JTAG>  returns FALSE (0001ms, 0767ms total)
T0D64 017:887 JLINK_IsHalted() >0x170 JTAG>  returns FALSE (0001ms, 0767ms total)
T0D64 017:890 JLINK_IsHalted() >0x170 JTAG>  returns FALSE (0001ms, 0767ms total)
T0D64 017:893 JLINK_IsHalted() >0x170 JTAG>  returns FALSE (0001ms, 0767ms total)
T0D64 017:896 JLINK_IsHalted() >0x170 JTAG>  returns FALSE (0001ms, 0767ms total)
T0D64 017:899 JLINK_IsHalted() >0x170 JTAG>  returns FALSE (0001ms, 0767ms total)
T0D64 017:907 JLINK_IsHalted() >0x170 JTAG>  returns FALSE (0001ms, 0767ms total)
T0D64 017:910 JLINK_IsHalted() >0x170 JTAG>  returns FALSE (0001ms, 0767ms total)
T0D64 017:913 JLINK_IsHalted() >0x170 JTAG>  returns FALSE (0001ms, 0767ms total)
T0D64 017:916 JLINK_IsHalted() >0x170 JTAG>  returns FALSE (0001ms, 0767ms total)
T0D64 017:919 JLINK_IsHalted() >0x170 JTAG>  returns FALSE (0001ms, 0767ms total)
T0D64 017:922 JLINK_IsHalted() >0x170 JTAG>  returns FALSE (0001ms, 0767ms total)
T0D64 017:925 JLINK_IsHalted() >0x170 JTAG>  returns FALSE (0001ms, 0767ms total)
T0D64 017:928 JLINK_IsHalted() >0x170 JTAG> >0x1598 JTAG>  returns TRUE (0012ms, 0778ms total)
T0D64 017:940 JLINK_ReadReg(R15 (PC))  returns 0x10000000 (0000ms, 0766ms total)
T0D64 017:940 JLINK_ClrBPEx(BPHandle = 0x00000009)  returns 0x00 (0001ms, 0767ms total)
T0D64 017:941 JLINK_ReadReg(R0)  returns 0x00000000 (0000ms, 0767ms total)
T0D64 017:943 JLINK_WriteReg(R0, 0x00004000)  returns 0x00 (0000ms, 0767ms total)
T0D64 017:943 JLINK_WriteReg(R1, 0x00001000)  returns 0x00 (0000ms, 0767ms total)
T0D64 017:943 JLINK_WriteReg(R2, 0x000000FF)  returns 0x00 (0000ms, 0767ms total)
T0D64 017:943 JLINK_WriteReg(R3, 0x00000000)  returns 0x00 (0001ms, 0768ms total)
T0D64 017:944 JLINK_WriteReg(R4, 0x00000000)  returns 0x00 (0000ms, 0768ms total)
T0D64 017:944 JLINK_WriteReg(R5, 0x00000000)  returns 0x00 (0000ms, 0768ms total)
T0D64 017:944 JLINK_WriteReg(R6, 0x00000000)  returns 0x00 (0000ms, 0768ms total)
T0D64 017:944 JLINK_WriteReg(R7, 0x00000000)  returns 0x00 (0000ms, 0768ms total)
T0D64 017:944 JLINK_WriteReg(R8, 0x00000000)  returns 0x00 (0000ms, 0768ms total)
T0D64 017:944 JLINK_WriteReg(R9, 0x100001DC)  returns 0x00 (0000ms, 0768ms total)
T0D64 017:945 JLINK_WriteReg(R10, 0x00000000)  returns 0x00 (0000ms, 0769ms total)
T0D64 017:945 JLINK_WriteReg(R11, 0x00000000)  returns 0x00 (0000ms, 0769ms total)
T0D64 017:945 JLINK_WriteReg(R12, 0x00000000)  returns 0x00 (0000ms, 0769ms total)
T0D64 017:945 JLINK_WriteReg(R13 (SP), 0x10000FE0)  returns 0x00 (0000ms, 0769ms total)
T0D64 017:945 JLINK_WriteReg(R14, 0x10000001)  returns 0x00 (0000ms, 0769ms total)
T0D64 017:945 JLINK_WriteReg(R15 (PC), 0x10000020)  returns 0x00 (0000ms, 0769ms total)
T0D64 017:945 JLINK_WriteReg(XPSR, 0x01000000)  returns 0x00 (0000ms, 0769ms total)
T0D64 017:945 JLINK_WriteReg(MSP, 0x10000FE0)  returns 0x00 (0001ms, 0770ms total)
T0D64 017:946 JLINK_WriteReg(PSP, 0x10000FE0)  returns 0x00 (0000ms, 0770ms total)
T0D64 017:946 JLINK_WriteReg(CFBP, 0x00000000)  returns 0x00 (0000ms, 0770ms total)
T0D64 017:946 JLINK_SetBPEx(Addr = 0x10000000, Type = 0xFFFFFFF2)  returns 0x0000000A (0000ms, 0770ms total)
T0D64 017:946 JLINK_Go() >0x1D8 JTAG> >0x2C8 JTAG> >0x1E8 JTAG> >0x1E8 JTAG> >0x1E8 JTAG> >0x1E8 JTAG> >0x1E8 JTAG> >0x1E8 JTAG> >0x218 JTAG> >0x218 JTAG> (0017ms, 0787ms total)
T0D64 017:963 JLINK_IsHalted() >0x170 JTAG> >0x1598 JTAG>  returns TRUE (0012ms, 0799ms total)
T0D64 017:976 JLINK_ReadReg(R15 (PC))  returns 0x10000000 (0000ms, 0787ms total)
T0D64 017:976 JLINK_ClrBPEx(BPHandle = 0x0000000A)  returns 0x00 (0000ms, 0787ms total)
T0D64 017:976 JLINK_ReadReg(R0)  returns 0x00000001 (0000ms, 0787ms total)
T0D64 017:976 JLINK_WriteReg(R0, 0x00004000)  returns 0x00 (0000ms, 0787ms total)
T0D64 017:976 JLINK_WriteReg(R1, 0x00001000)  returns 0x00 (0000ms, 0787ms total)
T0D64 017:976 JLINK_WriteReg(R2, 0x000000FF)  returns 0x00 (0000ms, 0787ms total)
T0D64 017:976 JLINK_WriteReg(R3, 0x00000000)  returns 0x00 (0000ms, 0787ms total)
T0D64 017:976 JLINK_WriteReg(R4, 0x00000000)  returns 0x00 (0000ms, 0787ms total)
T0D64 017:976 JLINK_WriteReg(R5, 0x00000000)  returns 0x00 (0001ms, 0788ms total)
T0D64 017:977 JLINK_WriteReg(R6, 0x00000000)  returns 0x00 (0000ms, 0788ms total)
T0D64 017:977 JLINK_WriteReg(R7, 0x00000000)  returns 0x00 (0000ms, 0788ms total)
T0D64 017:977 JLINK_WriteReg(R8, 0x00000000)  returns 0x00 (0000ms, 0788ms total)
T0D64 017:977 JLINK_WriteReg(R9, 0x100001DC)  returns 0x00 (0000ms, 0788ms total)
T0D64 017:977 JLINK_WriteReg(R10, 0x00000000)  returns 0x00 (0000ms, 0788ms total)
T0D64 017:977 JLINK_WriteReg(R11, 0x00000000)  returns 0x00 (0000ms, 0788ms total)
T0D64 017:977 JLINK_WriteReg(R12, 0x00000000)  returns 0x00 (0001ms, 0789ms total)
T0D64 017:978 JLINK_WriteReg(R13 (SP), 0x10000FE0)  returns 0x00 (0000ms, 0789ms total)
T0D64 017:978 JLINK_WriteReg(R14, 0x10000001)  returns 0x00 (0000ms, 0789ms total)
T0D64 017:978 JLINK_WriteReg(R15 (PC), 0x10000110)  returns 0x00 (0000ms, 0789ms total)
T0D64 017:978 JLINK_WriteReg(XPSR, 0x01000000)  returns 0x00 (0000ms, 0789ms total)
T0D64 017:978 JLINK_WriteReg(MSP, 0x10000FE0)  returns 0x00 (0000ms, 0789ms total)
T0D64 017:978 JLINK_WriteReg(PSP, 0x10000FE0)  returns 0x00 (0000ms, 0789ms total)
T0D64 017:978 JLINK_WriteReg(CFBP, 0x00000000)  returns 0x00 (0000ms, 0789ms total)
T0D64 017:978 JLINK_SetBPEx(Addr = 0x10000000, Type = 0xFFFFFFF2)  returns 0x0000000B (0001ms, 0790ms total)
T0D64 017:979 JLINK_Go() >0x1D8 JTAG> >0x2C8 JTAG> >0x1E8 JTAG> >0x1E8 JTAG> >0x1E8 JTAG> >0x218 JTAG> >0x218 JTAG> (0012ms, 0802ms total)
T0D64 017:991 JLINK_IsHalted() >0x170 JTAG>  returns FALSE (0001ms, 0803ms total)
T0D64 017:999 JLINK_IsHalted() >0x170 JTAG>  returns FALSE (0001ms, 0803ms total)
T0D64 018:002 JLINK_IsHalted() >0x170 JTAG>  returns FALSE (0001ms, 0803ms total)
T0D64 018:006 JLINK_IsHalted() >0x170 JTAG>  returns FALSE (0001ms, 0803ms total)
T0D64 018:009 JLINK_IsHalted() >0x170 JTAG>  returns FALSE (0001ms, 0803ms total)
T0D64 018:012 JLINK_IsHalted() >0x170 JTAG>  returns FALSE (0000ms, 0802ms total)
T0D64 018:015 JLINK_IsHalted() >0x170 JTAG>  returns FALSE (0000ms, 0802ms total)
T0D64 018:017 JLINK_IsHalted() >0x170 JTAG>  returns FALSE (0001ms, 0803ms total)
T0D64 018:020 JLINK_IsHalted() >0x170 JTAG>  returns FALSE (0001ms, 0803ms total)
T0D64 018:023 JLINK_IsHalted() >0x170 JTAG>  returns FALSE (0001ms, 0803ms total)
T0D64 018:026 JLINK_IsHalted() >0x170 JTAG>  returns FALSE (0001ms, 0803ms total)
T0D64 018:030 JLINK_IsHalted() >0x170 JTAG>  returns FALSE (0000ms, 0802ms total)
T0D64 018:033 JLINK_IsHalted() >0x170 JTAG>  returns FALSE (0000ms, 0802ms total)
T0D64 018:035 JLINK_IsHalted() >0x170 JTAG>  returns FALSE (0001ms, 0803ms total)
T0D64 018:038 JLINK_IsHalted() >0x170 JTAG>  returns FALSE (0001ms, 0803ms total)
T0D64 018:046 JLINK_IsHalted() >0x170 JTAG>  returns FALSE (0001ms, 0803ms total)
T0D64 018:049 JLINK_IsHalted() >0x170 JTAG>  returns FALSE (0001ms, 0803ms total)
T0D64 018:053 JLINK_IsHalted() >0x170 JTAG>  returns FALSE (0001ms, 0803ms total)
T0D64 018:056 JLINK_IsHalted() >0x170 JTAG>  returns FALSE (0001ms, 0803ms total)
T0D64 018:059 JLINK_IsHalted() >0x170 JTAG>  returns FALSE (0001ms, 0803ms total)
T0D64 018:062 JLINK_IsHalted() >0x170 JTAG>  returns FALSE (0001ms, 0803ms total)
T0D64 018:065 JLINK_IsHalted() >0x170 JTAG>  returns FALSE (0002ms, 0804ms total)
T0D64 018:068 JLINK_IsHalted() >0x170 JTAG>  returns FALSE (0001ms, 0803ms total)
T0D64 018:071 JLINK_IsHalted() >0x170 JTAG>  returns FALSE (0001ms, 0803ms total)
T0D64 018:086 JLINK_IsHalted() >0x170 JTAG>  returns FALSE (0001ms, 0803ms total)
T0D64 018:089 JLINK_IsHalted() >0x170 JTAG> >0x1598 JTAG>  returns TRUE (0012ms, 0814ms total)
T0D64 018:101 JLINK_ReadReg(R15 (PC))  returns 0x10000000 (0000ms, 0802ms total)
T0D64 018:101 JLINK_ClrBPEx(BPHandle = 0x0000000B)  returns 0x00 (0000ms, 0802ms total)
T0D64 018:101 JLINK_ReadReg(R0)  returns 0x00000000 (0001ms, 0803ms total)
T0D64 018:105 JLINK_WriteReg(R0, 0x00005000)  returns 0x00 (0000ms, 0803ms total)
T0D64 018:105 JLINK_WriteReg(R1, 0x00001000)  returns 0x00 (0000ms, 0803ms total)
T0D64 018:105 JLINK_WriteReg(R2, 0x000000FF)  returns 0x00 (0000ms, 0803ms total)
T0D64 018:105 JLINK_WriteReg(R3, 0x00000000)  returns 0x00 (0000ms, 0803ms total)
T0D64 018:105 JLINK_WriteReg(R4, 0x00000000)  returns 0x00 (0000ms, 0803ms total)
T0D64 018:105 JLINK_WriteReg(R5, 0x00000000)  returns 0x00 (0000ms, 0803ms total)
T0D64 018:105 JLINK_WriteReg(R6, 0x00000000)  returns 0x00 (0000ms, 0803ms total)
T0D64 018:105 JLINK_WriteReg(R7, 0x00000000)  returns 0x00 (0000ms, 0803ms total)
T0D64 018:105 JLINK_WriteReg(R8, 0x00000000)  returns 0x00 (0000ms, 0803ms total)
T0D64 018:105 JLINK_WriteReg(R9, 0x100001DC)  returns 0x00 (0000ms, 0803ms total)
T0D64 018:105 JLINK_WriteReg(R10, 0x00000000)  returns 0x00 (0000ms, 0803ms total)
T0D64 018:105 JLINK_WriteReg(R11, 0x00000000)  returns 0x00 (0000ms, 0803ms total)
T0D64 018:105 JLINK_WriteReg(R12, 0x00000000)  returns 0x00 (0000ms, 0803ms total)
T0D64 018:105 JLINK_WriteReg(R13 (SP), 0x10000FE0)  returns 0x00 (0000ms, 0803ms total)
T0D64 018:105 JLINK_WriteReg(R14, 0x10000001)  returns 0x00 (0000ms, 0803ms total)
T0D64 018:106 JLINK_WriteReg(R15 (PC), 0x10000020)  returns 0x00 (0000ms, 0804ms total)
T0D64 018:106 JLINK_WriteReg(XPSR, 0x01000000)  returns 0x00 (0000ms, 0804ms total)
T0D64 018:106 JLINK_WriteReg(MSP, 0x10000FE0)  returns 0x00 (0000ms, 0804ms total)
T0D64 018:106 JLINK_WriteReg(PSP, 0x10000FE0)  returns 0x00 (0000ms, 0804ms total)
T0D64 018:106 JLINK_WriteReg(CFBP, 0x00000000)  returns 0x00 (0000ms, 0804ms total)
T0D64 018:106 JLINK_SetBPEx(Addr = 0x10000000, Type = 0xFFFFFFF2)  returns 0x0000000C (0000ms, 0804ms total)
T0D64 018:106 JLINK_Go() >0x1D8 JTAG> >0x2C8 JTAG> >0x1E8 JTAG> >0x1E8 JTAG> >0x1E8 JTAG> >0x1E8 JTAG> >0x1E8 JTAG> >0x1E8 JTAG> >0x218 JTAG> >0x218 JTAG> (0018ms, 0822ms total)
T0D64 018:124 JLINK_IsHalted() >0x170 JTAG> >0x1598 JTAG>  returns TRUE (0012ms, 0834ms total)
T0D64 018:136 JLINK_ReadReg(R15 (PC))  returns 0x10000000 (0001ms, 0823ms total)
T0D64 018:137 JLINK_ClrBPEx(BPHandle = 0x0000000C)  returns 0x00 (0000ms, 0823ms total)
T0D64 018:137 JLINK_ReadReg(R0)  returns 0x00000001 (0000ms, 0823ms total)
T0D64 018:137 JLINK_WriteReg(R0, 0x00005000)  returns 0x00 (0000ms, 0823ms total)
T0D64 018:137 JLINK_WriteReg(R1, 0x00001000)  returns 0x00 (0000ms, 0823ms total)
T0D64 018:137 JLINK_WriteReg(R2, 0x000000FF)  returns 0x00 (0000ms, 0823ms total)
T0D64 018:137 JLINK_WriteReg(R3, 0x00000000)  returns 0x00 (0000ms, 0823ms total)
T0D64 018:137 JLINK_WriteReg(R4, 0x00000000)  returns 0x00 (0000ms, 0823ms total)
T0D64 018:137 JLINK_WriteReg(R5, 0x00000000)  returns 0x00 (0001ms, 0824ms total)
T0D64 018:138 JLINK_WriteReg(R6, 0x00000000)  returns 0x00 (0000ms, 0824ms total)
T0D64 018:138 JLINK_WriteReg(R7, 0x00000000)  returns 0x00 (0000ms, 0824ms total)
T0D64 018:138 JLINK_WriteReg(R8, 0x00000000)  returns 0x00 (0000ms, 0824ms total)
T0D64 018:138 JLINK_WriteReg(R9, 0x100001DC)  returns 0x00 (0000ms, 0824ms total)
T0D64 018:138 JLINK_WriteReg(R10, 0x00000000)  returns 0x00 (0000ms, 0824ms total)
T0D64 018:138 JLINK_WriteReg(R11, 0x00000000)  returns 0x00 (0000ms, 0824ms total)
T0D64 018:138 JLINK_WriteReg(R12, 0x00000000)  returns 0x00 (0000ms, 0824ms total)
T0D64 018:138 JLINK_WriteReg(R13 (SP), 0x10000FE0)  returns 0x00 (0000ms, 0824ms total)
T0D64 018:138 JLINK_WriteReg(R14, 0x10000001)  returns 0x00 (0000ms, 0824ms total)
T0D64 018:138 JLINK_WriteReg(R15 (PC), 0x10000110)  returns 0x00 (0001ms, 0825ms total)
T0D64 018:139 JLINK_WriteReg(XPSR, 0x01000000)  returns 0x00 (0000ms, 0825ms total)
T0D64 018:139 JLINK_WriteReg(MSP, 0x10000FE0)  returns 0x00 (0000ms, 0825ms total)
T0D64 018:139 JLINK_WriteReg(PSP, 0x10000FE0)  returns 0x00 (0000ms, 0825ms total)
T0D64 018:139 JLINK_WriteReg(CFBP, 0x00000000)  returns 0x00 (0000ms, 0825ms total)
T0D64 018:139 JLINK_SetBPEx(Addr = 0x10000000, Type = 0xFFFFFFF2)  returns 0x0000000D (0000ms, 0825ms total)
T0D64 018:139 JLINK_Go() >0x1D8 JTAG> >0x2C8 JTAG> >0x1E8 JTAG> >0x1E8 JTAG> >0x218 JTAG> >0x218 JTAG> (0011ms, 0836ms total)
T0D64 018:150 JLINK_IsHalted() >0x170 JTAG>  returns FALSE (0001ms, 0837ms total)
T0D64 018:158 JLINK_IsHalted() >0x170 JTAG>  returns FALSE (0001ms, 0837ms total)
T0D64 018:161 JLINK_IsHalted() >0x170 JTAG>  returns FALSE (0001ms, 0837ms total)
T0D64 018:165 JLINK_IsHalted() >0x170 JTAG>  returns FALSE (0001ms, 0837ms total)
T0D64 018:168 JLINK_IsHalted() >0x170 JTAG>  returns FALSE (0001ms, 0837ms total)
T0D64 018:171 JLINK_IsHalted() >0x170 JTAG>  returns FALSE (0001ms, 0837ms total)
T0D64 018:174 JLINK_IsHalted() >0x170 JTAG>  returns FALSE (0001ms, 0837ms total)
T0D64 018:177 JLINK_IsHalted() >0x170 JTAG>  returns FALSE (0001ms, 0837ms total)
T0D64 018:180 JLINK_IsHalted() >0x170 JTAG>  returns FALSE (0001ms, 0837ms total)
T0D64 018:183 JLINK_IsHalted() >0x170 JTAG>  returns FALSE (0001ms, 0837ms total)
T0D64 018:186 JLINK_IsHalted() >0x170 JTAG>  returns FALSE (0001ms, 0837ms total)
T0D64 018:189 JLINK_IsHalted() >0x170 JTAG>  returns FALSE (0001ms, 0837ms total)
T0D64 018:192 JLINK_IsHalted() >0x170 JTAG>  returns FALSE (0001ms, 0837ms total)
T0D64 018:195 JLINK_IsHalted() >0x170 JTAG>  returns FALSE (0001ms, 0837ms total)
T0D64 018:198 JLINK_IsHalted() >0x170 JTAG>  returns FALSE (0001ms, 0837ms total)
T0D64 018:201 JLINK_IsHalted() >0x170 JTAG>  returns FALSE (0001ms, 0837ms total)
T0D64 018:204 JLINK_IsHalted() >0x170 JTAG>  returns FALSE (0001ms, 0837ms total)
T0D64 018:207 JLINK_IsHalted() >0x170 JTAG>  returns FALSE (0001ms, 0837ms total)
T0D64 018:210 JLINK_IsHalted() >0x170 JTAG>  returns FALSE (0001ms, 0837ms total)
T0D64 018:213 JLINK_IsHalted() >0x170 JTAG>  returns FALSE (0001ms, 0837ms total)
T0D64 018:219 JLINK_IsHalted() >0x170 JTAG>  returns FALSE (0001ms, 0837ms total)
T0D64 018:222 JLINK_IsHalted() >0x170 JTAG>  returns FALSE (0001ms, 0837ms total)
T0D64 018:225 JLINK_IsHalted() >0x170 JTAG>  returns FALSE (0001ms, 0837ms total)
T0D64 018:228 JLINK_IsHalted() >0x170 JTAG>  returns FALSE (0001ms, 0837ms total)
T0D64 018:231 JLINK_IsHalted() >0x170 JTAG>  returns FALSE (0001ms, 0837ms total)
